time	V(vb)	I(L1)
0.000000000000000e+000	0.000000e+000	0.000000e+000
3.652000500083940e-011	9.119007e-008	4.145002e-010
7.304001000167880e-011	3.642897e-007	1.655862e-009
1.095600150025182e-010	8.192988e-007	3.724085e-009
1.460800200033576e-010	1.456218e-006	6.619170e-009
1.826000250041970e-010	2.275046e-006	1.034112e-008
2.191200300050364e-010	3.275783e-006	1.488993e-008
2.556400350058757e-010	4.458431e-006	2.026560e-008
5.084799298740913e-010	1.428448e-005	6.492947e-008
6.075979671477503e-010	2.055332e-005	9.342418e-008
7.208757240319319e-010	2.882980e-005	1.310445e-007
7.734444862316368e-010	3.314428e-005	1.506558e-007
8.785820106310465e-010	4.290776e-005	1.950353e-007
1.000000000000000e-009	5.511509e-005	2.505231e-007
4.556982283877943e-007	4.968045e-002	2.258202e-004
9.103964567755885e-007	9.878347e-002	4.490157e-004
1.365094685163383e-006	1.473642e-001	6.698372e-004
1.819792913551177e-006	1.954226e-001	8.882844e-004
2.274491141938972e-006	2.429587e-001	1.104358e-003
2.729189370326766e-006	2.899725e-001	1.318057e-003
3.183887598714559e-006	3.364639e-001	1.529381e-003
5.137012598714559e-006	5.322469e-001	2.419304e-003
7.090137598714559e-006	7.201828e-001	3.273558e-003
9.043262598714559e-006	9.002132e-001	4.091878e-003
1.099638759871456e-005	1.072671e+000	4.875775e-003
1.294951259871456e-005	1.237874e+000	5.626698e-003
1.685576259871456e-005	1.547724e+000	7.035108e-003
2.076201259871456e-005	1.832055e+000	8.327520e-003
2.466826259871456e-005	2.092968e+000	9.513489e-003
3.052763759871457e-005	2.444604e+000	1.111184e-002
3.638701259871458e-005	2.753706e+000	1.251685e-002
4.224638759871458e-005	3.025419e+000	1.375190e-002
4.810576259871459e-005	3.257028e+000	1.480467e-002
5.396513759871459e-005	3.467327e+000	1.576058e-002
5.982451259871460e-005	3.656317e+000	1.661962e-002
6.568388759871461e-005	3.823997e+000	1.738180e-002
7.154326259871461e-005	3.970366e+000	1.804712e-002
7.740263759871462e-005	4.095426e+000	1.861557e-002
8.326201259871461e-005	4.199175e+000	1.908716e-002
9.274861974157176e-005	4.340065e+000	1.972757e-002
1.022352268844289e-004	4.463279e+000	2.028763e-002
1.117218340272861e-004	4.568818e+000	2.076735e-002
1.212084411701432e-004	4.656681e+000	2.116673e-002
1.306950483130004e-004	4.726869e+000	2.148577e-002
1.401816554558575e-004	4.779382e+000	2.172446e-002
1.496682625987147e-004	4.814219e+000	2.188282e-002
1.694785304558575e-004	4.868064e+000	2.212757e-002
1.892887983130004e-004	4.912388e+000	2.232904e-002
2.090990661701433e-004	4.947191e+000	2.248723e-002
2.289093340272862e-004	4.972473e+000	2.260215e-002
2.487196018844290e-004	4.988233e+000	2.267379e-002
2.685298697415719e-004	4.994473e+000	2.270215e-002
2.883401375987148e-004	4.991191e+000	2.268723e-002
1.000001000000000e-003	4.999977e+000	2.272717e-002
1.000002000000000e-003	4.999922e+000	2.272692e-002
1.003995622995994e-003	4.586636e+000	2.084834e-002
1.007989245991987e-003	4.201787e+000	1.909903e-002
1.011982868987980e-003	3.845377e+000	1.747899e-002
1.015976491983974e-003	3.517405e+000	1.598820e-002
1.019970114979967e-003	3.217871e+000	1.462668e-002
1.023963737975961e-003	2.946774e+000	1.339443e-002
1.027957360971954e-003	2.704116e+000	1.229144e-002
1.033816735971954e-003	2.377022e+000	1.080465e-002
1.039676110971954e-003	2.089494e+000	9.497698e-003
1.045535485971954e-003	1.836745e+000	8.348842e-003
1.051394860971954e-003	1.614570e+000	7.338953e-003
1.057254235971954e-003	1.419269e+000	6.451221e-003
1.063113610971954e-003	1.247592e+000	5.670872e-003
1.068972985971954e-003	1.096681e+000	4.984914e-003
1.074832360971954e-003	9.640248e-001	4.381931e-003
1.080691735971954e-003	8.474149e-001	3.851886e-003
1.086551110971954e-003	7.449102e-001	3.385955e-003
1.092410485971954e-003	6.548047e-001	2.976385e-003
1.098269860971954e-003	5.755985e-001	2.616357e-003
1.104129235971954e-003	5.059732e-001	2.299878e-003
1.109988610971954e-003	4.447699e-001	2.021681e-003
1.115847985971954e-003	3.909698e-001	1.777135e-003
1.121707360971954e-003	3.436775e-001	1.562170e-003
1.127566735971954e-003	3.021057e-001	1.373208e-003
1.133426110971954e-003	2.655625e-001	1.207102e-003
1.139285485971954e-003	2.334397e-001	1.061089e-003
1.145144860971954e-003	2.052024e-001	9.327383e-004
1.151004235971954e-003	1.803808e-001	8.199128e-004
1.156863610971954e-003	1.585617e-001	7.207348e-004
1.162722985971954e-003	1.393818e-001	6.335537e-004
1.168582360971954e-003	1.225220e-001	5.569180e-004
1.174441735971954e-003	1.077015e-001	4.895523e-004
1.180301110971954e-003	9.467377e-002	4.303353e-004
1.186160485971954e-003	8.322188e-002	3.782812e-004
1.192019860971954e-003	7.315522e-002	3.325237e-004
1.197879235971954e-003	6.430625e-002	2.923011e-004
1.203738610971954e-003	5.652767e-002	2.569440e-004
1.209597985971954e-003	4.968999e-002	2.258636e-004
1.215457360971954e-003	4.367941e-002	1.985428e-004
1.221316735971955e-003	3.839588e-002	1.745267e-004
1.227176110971955e-003	3.375145e-002	1.534157e-004
1.233035485971955e-003	2.966882e-002	1.348583e-004
1.238894860971955e-003	2.608004e-002	1.185456e-004
1.244754235971955e-003	2.292535e-002	1.042062e-004
1.250613610971955e-003	2.015227e-002	9.160122e-005
1.256472985971955e-003	1.771462e-002	8.052099e-005
1.262332360971955e-003	1.557183e-002	7.078104e-005
1.268191735971955e-003	1.368824e-002	6.221926e-005
1.274051110971955e-003	1.203249e-002	5.469312e-005
1.279910485971955e-003	1.057702e-002	4.807735e-005
1.285769860971955e-003	9.297605e-003	4.226184e-005
1.291629235971955e-003	8.172952e-003	3.714978e-005
1.297488610971955e-003	7.184339e-003	3.265608e-005
1.303347985971955e-003	6.315310e-003	2.870595e-005
1.309207360971955e-003	5.551400e-003	2.523364e-005
1.315066735971955e-003	4.879894e-003	2.218134e-005
1.320926110971955e-003	4.289614e-003	1.949825e-005
1.326785485971955e-003	3.770736e-003	1.713971e-005
1.332644860971955e-003	3.314622e-003	1.506646e-005
1.338504235971955e-003	2.913679e-003	1.324400e-005
1.344363610971955e-003	2.561236e-003	1.164198e-005
1.350222985971955e-003	2.251425e-003	1.023375e-005
1.356082360971955e-003	1.979089e-003	8.995859e-006
1.361941735971955e-003	1.739695e-003	7.907706e-006
1.367801110971955e-003	1.529259e-003	6.951178e-006
1.373660485971955e-003	1.344278e-003	6.110352e-006
1.379519860971955e-003	1.181672e-003	5.371235e-006
1.385379235971955e-003	1.038735e-003	4.721522e-006
1.391238610971955e-003	9.130877e-004	4.150399e-006
1.397097985971955e-003	8.026392e-004	3.648360e-006
1.402957360971955e-003	7.055507e-004	3.207049e-006
1.408816735971955e-003	6.202062e-004	2.819119e-006
1.414676110971955e-003	5.451851e-004	2.478114e-006
1.420535485971955e-003	4.792386e-004	2.178357e-006
1.426394860971955e-003	4.212692e-004	1.914860e-006
1.432254235971955e-003	3.703118e-004	1.683235e-006
1.438113610971955e-003	3.255183e-004	1.479629e-006
1.443972985971955e-003	2.861431e-004	1.300650e-006
1.449832360971955e-003	2.515308e-004	1.143322e-006
1.455691735971955e-003	2.211052e-004	1.005024e-006
1.461551110971955e-003	1.943600e-004	8.834544e-007
1.466573432400526e-003	1.744986e-004	7.931752e-007
1.471595753829098e-003	1.562724e-004	7.103292e-007
1.476618075257669e-003	1.396816e-004	6.349165e-007
1.481640396686241e-003	1.247261e-004	5.669369e-007
1.486662718114812e-003	1.114059e-004	5.063905e-007
1.491685039543383e-003	9.972101e-005	4.532773e-007
1.496707360971955e-003	8.967140e-005	4.075973e-007
1.502566735971955e-003	7.915323e-005	3.597874e-007
1.508426110971955e-003	6.960282e-005	3.163764e-007
1.514285485971955e-003	6.102016e-005	2.773644e-007
1.520144860971955e-003	5.340526e-005	2.427512e-007
1.526004235971955e-003	4.675813e-005	2.125369e-007
1.531863610971955e-003	4.107875e-005	1.867216e-007
1.537722985971955e-003	3.636712e-005	1.653051e-007
1.545256468114812e-003	3.106731e-005	1.412150e-007
1.552789950257669e-003	2.634503e-005	1.197501e-007
1.560323432400526e-003	2.220029e-005	1.009104e-007
1.567856914543383e-003	1.863309e-005	8.469586e-008
1.575390396686241e-003	1.564342e-005	7.110648e-008
1.582923878829098e-003	1.323130e-005	6.014228e-008
1.590457360971955e-003	1.139671e-005	5.180325e-008
1.601897093114812e-003	9.082352e-006	4.128342e-008
1.613336825257669e-003	7.089925e-006	3.222693e-008
1.624776557400526e-003	5.419435e-006	2.463380e-008
1.636216289543383e-003	4.070880e-006	1.850400e-008
1.647656021686241e-003	3.044262e-006	1.383755e-008
1.659095753829098e-003	2.339579e-006	1.063445e-008
1.670535485971955e-003	1.956833e-006	8.894695e-009
1.690345753829098e-003	1.389613e-006	6.316423e-009
1.710156021686241e-003	9.226913e-007	4.194051e-009
1.729966289543384e-003	5.560679e-007	2.527581e-009
1.749776557400526e-003	2.897427e-007	1.317012e-009
1.769586825257669e-003	1.237157e-007	5.623440e-010
1.789397093114812e-003	5.798691e-008	2.635769e-010
1.809207360971955e-003	9.255638e-008	4.207108e-010
1.811160485971955e-003	8.866298e-008	4.030135e-010
1.999999000000000e-003	1.389973e-009	6.318058e-012
2.000000000000000e-003	1.389942e-009	6.317919e-012
