time	V(va)	V(vb)
0.000000000000000e+000	0.000000e+000	0.000000e+000
3.652000500083940e-011	1.826000e-001	9.119007e-008
7.304001000167880e-011	3.652000e-001	3.642897e-007
1.095600150025182e-010	5.478001e-001	8.192988e-007
1.460800200033576e-010	7.304001e-001	1.456218e-006
1.826000250041970e-010	9.130001e-001	2.275046e-006
2.191200300050364e-010	1.095600e+000	3.275783e-006
2.556400350058757e-010	1.278200e+000	4.458431e-006
5.084799298740913e-010	2.542400e+000	1.428448e-005
6.075979671477503e-010	3.037990e+000	2.055332e-005
7.208757240319319e-010	3.604379e+000	2.882980e-005
7.734444862316368e-010	3.867223e+000	3.314428e-005
8.785820106310465e-010	4.392910e+000	4.290776e-005
1.000000000000000e-009	5.000000e+000	5.511509e-005
4.556982283877943e-007	5.000000e+000	4.968045e-002
9.103964567755885e-007	5.000000e+000	9.878347e-002
1.365094685163383e-006	5.000000e+000	1.473642e-001
1.819792913551177e-006	5.000000e+000	1.954226e-001
2.274491141938972e-006	5.000000e+000	2.429587e-001
2.729189370326766e-006	5.000000e+000	2.899725e-001
3.183887598714559e-006	5.000000e+000	3.364639e-001
5.137012598714559e-006	5.000000e+000	5.322469e-001
7.090137598714559e-006	5.000000e+000	7.201828e-001
9.043262598714559e-006	5.000000e+000	9.002132e-001
1.099638759871456e-005	5.000000e+000	1.072671e+000
1.294951259871456e-005	5.000000e+000	1.237874e+000
1.685576259871456e-005	5.000000e+000	1.547724e+000
2.076201259871456e-005	5.000000e+000	1.832055e+000
2.466826259871456e-005	5.000000e+000	2.092968e+000
3.052763759871457e-005	5.000000e+000	2.444604e+000
3.638701259871458e-005	5.000000e+000	2.753706e+000
4.224638759871458e-005	5.000000e+000	3.025419e+000
4.810576259871459e-005	5.000000e+000	3.257028e+000
5.396513759871459e-005	5.000000e+000	3.467327e+000
5.982451259871460e-005	5.000000e+000	3.656317e+000
6.568388759871461e-005	5.000000e+000	3.823997e+000
7.154326259871461e-005	5.000000e+000	3.970366e+000
7.740263759871462e-005	5.000000e+000	4.095426e+000
8.326201259871461e-005	5.000000e+000	4.199175e+000
9.274861974157176e-005	5.000000e+000	4.340065e+000
1.022352268844289e-004	5.000000e+000	4.463279e+000
1.117218340272861e-004	5.000000e+000	4.568818e+000
1.212084411701432e-004	5.000000e+000	4.656681e+000
1.306950483130004e-004	5.000000e+000	4.726869e+000
1.401816554558575e-004	5.000000e+000	4.779382e+000
1.496682625987147e-004	5.000000e+000	4.814219e+000
1.694785304558575e-004	5.000000e+000	4.868064e+000
1.892887983130004e-004	5.000000e+000	4.912388e+000
2.090990661701433e-004	5.000000e+000	4.947191e+000
2.289093340272862e-004	5.000000e+000	4.972473e+000
2.487196018844290e-004	5.000000e+000	4.988233e+000
2.685298697415719e-004	5.000000e+000	4.994473e+000
2.883401375987148e-004	5.000000e+000	4.991191e+000
1.000001000000000e-003	5.000000e+000	4.999977e+000
1.000002000000000e-003	0.000000e+000	4.999922e+000
1.003995622995994e-003	0.000000e+000	4.586636e+000
1.007989245991987e-003	0.000000e+000	4.201787e+000
1.011982868987980e-003	0.000000e+000	3.845377e+000
1.015976491983974e-003	0.000000e+000	3.517405e+000
1.019970114979967e-003	0.000000e+000	3.217871e+000
1.023963737975961e-003	0.000000e+000	2.946774e+000
1.027957360971954e-003	0.000000e+000	2.704116e+000
1.033816735971954e-003	0.000000e+000	2.377022e+000
1.039676110971954e-003	0.000000e+000	2.089494e+000
1.045535485971954e-003	0.000000e+000	1.836745e+000
1.051394860971954e-003	0.000000e+000	1.614570e+000
1.057254235971954e-003	0.000000e+000	1.419269e+000
1.063113610971954e-003	0.000000e+000	1.247592e+000
1.068972985971954e-003	0.000000e+000	1.096681e+000
1.074832360971954e-003	0.000000e+000	9.640248e-001
1.080691735971954e-003	0.000000e+000	8.474149e-001
1.086551110971954e-003	0.000000e+000	7.449102e-001
1.092410485971954e-003	0.000000e+000	6.548047e-001
1.098269860971954e-003	0.000000e+000	5.755985e-001
1.104129235971954e-003	0.000000e+000	5.059732e-001
1.109988610971954e-003	0.000000e+000	4.447699e-001
1.115847985971954e-003	0.000000e+000	3.909698e-001
1.121707360971954e-003	0.000000e+000	3.436775e-001
1.127566735971954e-003	0.000000e+000	3.021057e-001
1.133426110971954e-003	0.000000e+000	2.655625e-001
1.139285485971954e-003	0.000000e+000	2.334397e-001
1.145144860971954e-003	0.000000e+000	2.052024e-001
1.151004235971954e-003	0.000000e+000	1.803808e-001
1.156863610971954e-003	0.000000e+000	1.585617e-001
1.162722985971954e-003	0.000000e+000	1.393818e-001
1.168582360971954e-003	0.000000e+000	1.225220e-001
1.174441735971954e-003	0.000000e+000	1.077015e-001
1.180301110971954e-003	0.000000e+000	9.467377e-002
1.186160485971954e-003	0.000000e+000	8.322188e-002
1.192019860971954e-003	0.000000e+000	7.315522e-002
1.197879235971954e-003	0.000000e+000	6.430625e-002
1.203738610971954e-003	0.000000e+000	5.652767e-002
1.209597985971954e-003	0.000000e+000	4.968999e-002
1.215457360971954e-003	0.000000e+000	4.367941e-002
1.221316735971955e-003	0.000000e+000	3.839588e-002
1.227176110971955e-003	0.000000e+000	3.375145e-002
1.233035485971955e-003	0.000000e+000	2.966882e-002
1.238894860971955e-003	0.000000e+000	2.608004e-002
1.244754235971955e-003	0.000000e+000	2.292535e-002
1.250613610971955e-003	0.000000e+000	2.015227e-002
1.256472985971955e-003	0.000000e+000	1.771462e-002
1.262332360971955e-003	0.000000e+000	1.557183e-002
1.268191735971955e-003	0.000000e+000	1.368824e-002
1.274051110971955e-003	0.000000e+000	1.203249e-002
1.279910485971955e-003	0.000000e+000	1.057702e-002
1.285769860971955e-003	0.000000e+000	9.297605e-003
1.291629235971955e-003	0.000000e+000	8.172952e-003
1.297488610971955e-003	0.000000e+000	7.184339e-003
1.303347985971955e-003	0.000000e+000	6.315310e-003
1.309207360971955e-003	0.000000e+000	5.551400e-003
1.315066735971955e-003	0.000000e+000	4.879894e-003
1.320926110971955e-003	0.000000e+000	4.289614e-003
1.326785485971955e-003	0.000000e+000	3.770736e-003
1.332644860971955e-003	0.000000e+000	3.314622e-003
1.338504235971955e-003	0.000000e+000	2.913679e-003
1.344363610971955e-003	0.000000e+000	2.561236e-003
1.350222985971955e-003	0.000000e+000	2.251425e-003
1.356082360971955e-003	0.000000e+000	1.979089e-003
1.361941735971955e-003	0.000000e+000	1.739695e-003
1.367801110971955e-003	0.000000e+000	1.529259e-003
1.373660485971955e-003	0.000000e+000	1.344278e-003
1.379519860971955e-003	0.000000e+000	1.181672e-003
1.385379235971955e-003	0.000000e+000	1.038735e-003
1.391238610971955e-003	0.000000e+000	9.130877e-004
1.397097985971955e-003	0.000000e+000	8.026392e-004
1.402957360971955e-003	0.000000e+000	7.055507e-004
1.408816735971955e-003	0.000000e+000	6.202062e-004
1.414676110971955e-003	0.000000e+000	5.451851e-004
1.420535485971955e-003	0.000000e+000	4.792386e-004
1.426394860971955e-003	0.000000e+000	4.212692e-004
1.432254235971955e-003	0.000000e+000	3.703118e-004
1.438113610971955e-003	0.000000e+000	3.255183e-004
1.443972985971955e-003	0.000000e+000	2.861431e-004
1.449832360971955e-003	0.000000e+000	2.515308e-004
1.455691735971955e-003	0.000000e+000	2.211052e-004
1.461551110971955e-003	0.000000e+000	1.943600e-004
1.466573432400526e-003	0.000000e+000	1.744986e-004
1.471595753829098e-003	0.000000e+000	1.562724e-004
1.476618075257669e-003	0.000000e+000	1.396816e-004
1.481640396686241e-003	0.000000e+000	1.247261e-004
1.486662718114812e-003	0.000000e+000	1.114059e-004
1.491685039543383e-003	0.000000e+000	9.972101e-005
1.496707360971955e-003	0.000000e+000	8.967140e-005
1.502566735971955e-003	0.000000e+000	7.915323e-005
1.508426110971955e-003	0.000000e+000	6.960282e-005
1.514285485971955e-003	0.000000e+000	6.102016e-005
1.520144860971955e-003	0.000000e+000	5.340526e-005
1.526004235971955e-003	0.000000e+000	4.675813e-005
1.531863610971955e-003	0.000000e+000	4.107875e-005
1.537722985971955e-003	0.000000e+000	3.636712e-005
1.545256468114812e-003	0.000000e+000	3.106731e-005
1.552789950257669e-003	0.000000e+000	2.634503e-005
1.560323432400526e-003	0.000000e+000	2.220029e-005
1.567856914543383e-003	0.000000e+000	1.863309e-005
1.575390396686241e-003	0.000000e+000	1.564342e-005
1.582923878829098e-003	0.000000e+000	1.323130e-005
1.590457360971955e-003	0.000000e+000	1.139671e-005
1.601897093114812e-003	0.000000e+000	9.082352e-006
1.613336825257669e-003	0.000000e+000	7.089925e-006
1.624776557400526e-003	0.000000e+000	5.419435e-006
1.636216289543383e-003	0.000000e+000	4.070880e-006
1.647656021686241e-003	0.000000e+000	3.044262e-006
1.659095753829098e-003	0.000000e+000	2.339579e-006
1.670535485971955e-003	0.000000e+000	1.956833e-006
1.690345753829098e-003	0.000000e+000	1.389613e-006
1.710156021686241e-003	0.000000e+000	9.226913e-007
1.729966289543384e-003	0.000000e+000	5.560679e-007
1.749776557400526e-003	0.000000e+000	2.897427e-007
1.769586825257669e-003	0.000000e+000	1.237157e-007
1.789397093114812e-003	0.000000e+000	5.798691e-008
1.809207360971955e-003	0.000000e+000	9.255638e-008
1.811160485971955e-003	0.000000e+000	8.866298e-008
1.999999000000000e-003	0.000000e+000	1.389973e-009
2.000000000000000e-003	0.000000e+000	1.389942e-009
