time	V(v1)	V(v2)	I(V1)
0.000000000000000e+000	0.000000e+000	0.000000e+000	0.000000e+000
3.652000500083940e-011	1.826000e-001	9.119007e-008	-4.145002e-010
7.304001000167880e-011	3.652000e-001	3.642897e-007	-1.655862e-009
1.095600150025182e-010	5.478001e-001	8.192988e-007	-3.724085e-009
1.460800200033576e-010	7.304001e-001	1.456218e-006	-6.619170e-009
1.826000250041970e-010	9.130001e-001	2.275046e-006	-1.034112e-008
2.191200300050364e-010	1.095600e+000	3.275783e-006	-1.488993e-008
2.556400350058757e-010	1.278200e+000	4.458431e-006	-2.026560e-008
5.084799298740913e-010	2.542400e+000	1.428448e-005	-6.492947e-008
6.075979671477503e-010	3.037990e+000	2.055332e-005	-9.342418e-008
7.208757240319319e-010	3.604379e+000	2.882980e-005	-1.310445e-007
7.734444862316368e-010	3.867223e+000	3.314428e-005	-1.506558e-007
8.785820106310465e-010	4.392910e+000	4.290776e-005	-1.950353e-007
1.000000000000000e-009	5.000000e+000	5.511509e-005	-2.505231e-007
4.556982283877943e-007	5.000000e+000	4.974551e-002	-2.261160e-004
9.103964567755885e-007	5.000000e+000	9.884131e-002	-4.492787e-004
1.365094685163383e-006	5.000000e+000	1.473425e-001	-6.697386e-004
1.819792913551177e-006	5.000000e+000	1.952491e-001	-8.874957e-004
2.274491141938972e-006	5.000000e+000	2.425610e-001	-1.102550e-003
2.729189370326766e-006	5.000000e+000	2.892784e-001	-1.314902e-003
3.183887598714559e-006	5.000000e+000	3.354011e-001	-1.524551e-003
6.366787339228055e-006	5.000000e+000	6.440558e-001	-2.927526e-003
1.222616233922806e-005	5.000000e+000	1.164021e+000	-5.291004e-003
1.808553733922806e-005	5.000000e+000	1.628561e+000	-7.402549e-003
2.394491233922806e-005	5.000000e+000	2.036844e+000	-9.258382e-003
2.980428733922806e-005	5.000000e+000	2.395684e+000	-1.088947e-002
3.566366233922805e-005	5.000000e+000	2.711067e+000	-1.232303e-002
4.152303733922805e-005	5.000000e+000	2.988258e+000	-1.358299e-002
4.738241233922805e-005	5.000000e+000	3.231880e+000	-1.469036e-002
5.324178733922805e-005	5.000000e+000	3.445999e+000	-1.566363e-002
5.910116233922805e-005	5.000000e+000	3.634188e+000	-1.651904e-002
6.496053733922805e-005	5.000000e+000	3.799587e+000	-1.727085e-002
7.667928733922806e-005	5.000000e+000	4.072721e+000	-1.851237e-002
8.839803733922807e-005	5.000000e+000	4.283706e+000	-1.947139e-002
1.059761623392281e-004	5.000000e+000	4.513689e+000	-2.051677e-002
1.235542873392281e-004	5.000000e+000	4.669828e+000	-2.122649e-002
1.377841980535138e-004	5.000000e+000	4.748114e+000	-2.158233e-002
1.520141087677996e-004	5.000000e+000	4.814273e+000	-2.188306e-002
1.662440194820853e-004	5.000000e+000	4.868308e+000	-2.212867e-002
1.804739301963710e-004	5.000000e+000	4.910217e+000	-2.231917e-002
1.947038409106568e-004	5.000000e+000	4.940001e+000	-2.245455e-002
2.089337516249425e-004	5.000000e+000	4.957659e+000	-2.253481e-002
2.231636623392282e-004	5.000000e+000	4.963192e+000	-2.255997e-002
2.867797337677997e-004	5.000000e+000	4.978591e+000	-2.262996e-002
3.503958051963712e-004	5.000000e+000	4.990608e+000	-2.268458e-002
4.140118766249427e-004	5.000000e+000	4.999244e+000	-2.272383e-002
4.776279480535142e-004	5.000000e+000	5.004498e+000	-2.274772e-002
5.412440194820856e-004	5.000000e+000	5.006372e+000	-2.275623e-002
6.048600909106571e-004	5.000000e+000	5.004864e+000	-2.274938e-002
6.684761623392285e-004	5.000000e+000	4.999975e+000	-2.272716e-002
1.000001000000000e-003	5.000000e+000	4.999977e+000	-2.272717e-002
1.000002000000000e-003	0.000000e+000	4.999922e+000	-2.272692e-002
1.004011120713985e-003	0.000000e+000	4.589353e+000	-2.086070e-002
1.008020241427969e-003	0.000000e+000	4.206410e+000	-1.912004e-002
1.012029362141954e-003	0.000000e+000	3.851091e+000	-1.750496e-002
1.016038482855938e-003	0.000000e+000	3.523397e+000	-1.601544e-002
1.020047603569922e-003	0.000000e+000	3.223327e+000	-1.465149e-002
1.024056724283907e-003	0.000000e+000	2.950882e+000	-1.341310e-002
1.028065844997891e-003	0.000000e+000	2.706062e+000	-1.230028e-002
1.033925219997891e-003	0.000000e+000	2.378354e+000	-1.081070e-002
1.039784594997891e-003	0.000000e+000	2.090332e+000	-9.501509e-003
1.045643969997891e-003	0.000000e+000	1.837190e+000	-8.350863e-003
1.051503344997891e-003	0.000000e+000	1.614704e+000	-7.339561e-003
1.057362719997891e-003	0.000000e+000	1.419161e+000	-6.450730e-003
1.063222094997891e-003	0.000000e+000	1.247298e+000	-5.669537e-003
1.069081469997892e-003	0.000000e+000	1.096249e+000	-4.982948e-003
1.074940844997892e-003	0.000000e+000	9.634913e-001	-4.379506e-003
1.080800219997892e-003	0.000000e+000	8.468112e-001	-3.849142e-003
1.086659594997892e-003	0.000000e+000	7.442611e-001	-3.383005e-003
1.092518969997892e-003	0.000000e+000	6.541300e-001	-2.973318e-003
1.098378344997892e-003	0.000000e+000	5.749140e-001	-2.613245e-003
1.104237719997892e-003	0.000000e+000	5.052910e-001	-2.296777e-003
1.110097094997892e-003	0.000000e+000	4.440996e-001	-2.018634e-003
1.115956469997892e-003	0.000000e+000	3.903185e-001	-1.774175e-003
1.121815844997892e-003	0.000000e+000	3.430504e-001	-1.559320e-003
1.127675219997892e-003	0.000000e+000	3.015065e-001	-1.370484e-003
1.133534594997892e-003	0.000000e+000	2.649936e-001	-1.204516e-003
1.139393969997892e-003	0.000000e+000	2.329025e-001	-1.058648e-003
1.145253344997892e-003	0.000000e+000	2.046977e-001	-9.304439e-004
1.151112719997892e-003	0.000000e+000	1.799085e-001	-8.177658e-004
1.156972094997892e-003	0.000000e+000	1.581213e-001	-7.187332e-004
1.162831469997892e-003	0.000000e+000	1.389726e-001	-6.316936e-004
1.168690844997892e-003	0.000000e+000	1.221428e-001	-5.551946e-004
1.174550219997892e-003	0.000000e+000	1.073511e-001	-4.879598e-004
1.180409594997892e-003	0.000000e+000	9.435077e-002	-4.288671e-004
1.186268969997892e-003	0.000000e+000	8.292475e-002	-3.769307e-004
1.192128344997892e-003	0.000000e+000	7.288244e-002	-3.312839e-004
1.197987719997892e-003	0.000000e+000	6.405628e-002	-2.911649e-004
1.203847094997892e-003	0.000000e+000	5.629897e-002	-2.559044e-004
1.209706469997892e-003	0.000000e+000	4.948109e-002	-2.249140e-004
1.215565844997892e-003	0.000000e+000	4.348885e-002	-1.976766e-004
1.221425219997892e-003	0.000000e+000	3.822229e-002	-1.737377e-004
1.227284594997892e-003	0.000000e+000	3.359352e-002	-1.526978e-004
1.233143969997892e-003	0.000000e+000	2.952529e-002	-1.342059e-004
1.239003344997892e-003	0.000000e+000	2.594974e-002	-1.179534e-004
1.244862719997892e-003	0.000000e+000	2.280719e-002	-1.036690e-004
1.250722094997892e-003	0.000000e+000	2.004521e-002	-9.111457e-005
1.256581469997892e-003	0.000000e+000	1.761770e-002	-8.008047e-005
1.262440844997892e-003	0.000000e+000	1.548417e-002	-7.038261e-005
1.268300219997892e-003	0.000000e+000	1.360902e-002	-6.185917e-005
1.274159594997892e-003	0.000000e+000	1.196095e-002	-5.436794e-005
1.280018969997892e-003	0.000000e+000	1.051246e-002	-4.778391e-005
1.285878344997892e-003	0.000000e+000	9.239385e-003	-4.199721e-005
1.291737719997892e-003	0.000000e+000	8.120482e-003	-3.691128e-005
1.297597094997892e-003	0.000000e+000	7.137080e-003	-3.244127e-005
1.303456469997892e-003	0.000000e+000	6.272770e-003	-2.851259e-005
1.309315844997892e-003	0.000000e+000	5.513128e-003	-2.505967e-005
1.315175219997892e-003	0.000000e+000	4.845480e-003	-2.202491e-005
1.321034594997892e-003	0.000000e+000	4.258686e-003	-1.935766e-005
1.326893969997892e-003	0.000000e+000	3.742953e-003	-1.701342e-005
1.332753344997892e-003	0.000000e+000	3.289676e-003	-1.495307e-005
1.338612719997892e-003	0.000000e+000	2.891291e-003	-1.314223e-005
1.344472094997892e-003	0.000000e+000	2.541152e-003	-1.155069e-005
1.350331469997892e-003	0.000000e+000	2.233415e-003	-1.015189e-005
1.356190844997892e-003	0.000000e+000	1.962945e-003	-8.922478e-006
1.362050219997892e-003	0.000000e+000	1.725230e-003	-7.841953e-006
1.367909594997892e-003	0.000000e+000	1.516302e-003	-6.892281e-006
1.373768969997892e-003	0.000000e+000	1.332675e-003	-6.057616e-006
1.379628344997892e-003	0.000000e+000	1.171287e-003	-5.324030e-006
1.385487719997892e-003	0.000000e+000	1.029442e-003	-4.679282e-006
1.391347094997892e-003	0.000000e+000	9.047752e-004	-4.112615e-006
1.397206469997892e-003	0.000000e+000	7.952056e-004	-3.614571e-006
1.403065844997892e-003	0.000000e+000	6.989051e-004	-3.176841e-006
1.408925219997892e-003	0.000000e+000	6.142667e-004	-2.792121e-006
1.414784594997892e-003	0.000000e+000	5.398781e-004	-2.453991e-006
1.420643969997892e-003	0.000000e+000	4.744981e-004	-2.156809e-006
1.426503344997892e-003	0.000000e+000	4.170357e-004	-1.895617e-006
1.432362719997892e-003	0.000000e+000	3.665321e-004	-1.666055e-006
1.438222094997892e-003	0.000000e+000	3.221445e-004	-1.464293e-006
1.444081469997892e-003	0.000000e+000	2.831324e-004	-1.286965e-006
1.449940844997892e-003	0.000000e+000	2.488446e-004	-1.131112e-006
1.455800219997892e-003	0.000000e+000	2.187092e-004	-9.941326e-007
1.461659594997892e-003	0.000000e+000	1.922232e-004	-8.737417e-007
1.467518969997892e-003	0.000000e+000	1.689447e-004	-7.679304e-007
1.473378344997892e-003	0.000000e+000	1.484852e-004	-6.749329e-007
1.479237719997892e-003	0.000000e+000	1.305035e-004	-5.931976e-007
1.485097094997892e-003	0.000000e+000	1.146993e-004	-5.213605e-007
1.490956469997892e-003	0.000000e+000	1.008091e-004	-4.582230e-007
1.496815844997892e-003	0.000000e+000	8.860094e-005	-4.027315e-007
1.502675219997892e-003	0.000000e+000	7.787123e-005	-3.539602e-007
1.508534594997892e-003	0.000000e+000	6.844092e-005	-3.110951e-007
1.514393969997892e-003	0.000000e+000	6.015263e-005	-2.734210e-007
1.520253344997892e-003	0.000000e+000	5.286805e-005	-2.403093e-007
1.526112719997892e-003	0.000000e+000	4.646566e-005	-2.112075e-007
1.531972094997892e-003	0.000000e+000	4.083860e-005	-1.856300e-007
1.543690844997892e-003	0.000000e+000	3.154630e-005	-1.433923e-007
1.555409594997892e-003	0.000000e+000	2.436834e-005	-1.107652e-007
1.567128344997892e-003	0.000000e+000	1.882363e-005	-8.556196e-008
1.578847094997892e-003	0.000000e+000	1.454055e-005	-6.609342e-008
1.596425219997892e-003	0.000000e+000	9.871819e-006	-4.487190e-008
1.614003344997892e-003	0.000000e+000	6.702139e-006	-3.046427e-008
1.628233255712178e-003	0.000000e+000	5.112924e-006	-2.324057e-008
1.642463166426463e-003	0.000000e+000	3.769858e-006	-1.713572e-008
1.656693077140749e-003	0.000000e+000	2.672939e-006	-1.214972e-008
1.670922987855035e-003	0.000000e+000	1.822168e-006	-8.282583e-009
1.685152898569321e-003	0.000000e+000	1.217546e-006	-5.534299e-009
1.699382809283606e-003	0.000000e+000	8.590714e-007	-3.904870e-009
1.713612719997892e-003	0.000000e+000	7.467450e-007	-3.394295e-009
1.754525188569622e-003	0.000000e+000	4.587365e-007	-2.085166e-009
1.795437657141352e-003	0.000000e+000	2.312361e-007	-1.051073e-009
1.836350125713081e-003	0.000000e+000	6.424354e-008	-2.920161e-010
1.877262594284811e-003	0.000000e+000	-4.224100e-008	1.920045e-010
1.918175062856541e-003	0.000000e+000	-8.821757e-008	4.009889e-010
1.959087531428270e-003	0.000000e+000	-7.368617e-008	3.349371e-010
2.000000000000000e-003	0.000000e+000	1.353204e-009	-6.150926e-012
2.000000034680975e-003	1.734049e-001	8.217499e-008	-3.735227e-010
2.000000069361949e-003	3.468098e-001	3.282149e-007	-1.491886e-009
2.000000104042924e-003	5.202146e-001	7.394731e-007	-3.361241e-009
2.000000138723898e-003	6.936195e-001	1.315949e-006	-5.981588e-009
2.000000173404873e-003	8.670244e-001	2.057644e-006	-9.352926e-009
2.000000208085848e-003	1.040429e+000	2.964556e-006	-1.347526e-008
2.000000242766822e-003	1.213834e+000	4.036687e-006	-1.834858e-008
2.000000478934560e-003	2.394673e+000	1.298654e-005	-5.902973e-008
2.000000527664525e-003	2.638323e+000	1.550384e-005	-7.047202e-008
2.000000625124455e-003	3.125622e+000	2.208562e-005	-1.003892e-007
2.000000820044315e-003	4.100222e+000	3.804219e-005	-1.729190e-007
2.000001000000000e-003	5.000000e+000	5.511121e-005	-2.505055e-007
2.000674916046014e-003	5.000000e+000	7.345661e-002	-3.338937e-004
2.001348832092029e-003	5.000000e+000	1.455827e-001	-6.617399e-004
2.002022748138043e-003	5.000000e+000	2.164335e-001	-9.837889e-004
2.002696664184058e-003	5.000000e+000	2.860089e-001	-1.300041e-003
2.003370580230072e-003	5.000000e+000	3.543090e-001	-1.610495e-003
2.004044496276086e-003	5.000000e+000	4.213337e-001	-1.915153e-003
2.004718412322101e-003	5.000000e+000	4.870830e-001	-2.214014e-003
2.009435842639770e-003	5.000000e+000	9.242189e-001	-4.200995e-003
2.015295217639769e-003	5.000000e+000	1.414737e+000	-6.430625e-003
2.021154592639769e-003	5.000000e+000	1.848915e+000	-8.404160e-003
2.027013967639769e-003	5.000000e+000	2.230513e+000	-1.013870e-002
2.032873342639769e-003	5.000000e+000	2.565899e+000	-1.166318e-002
2.038732717639769e-003	5.000000e+000	2.860670e+000	-1.300304e-002
2.044592092639768e-003	5.000000e+000	3.119743e+000	-1.418065e-002
2.050451467639768e-003	5.000000e+000	3.347442e+000	-1.521564e-002
2.056310842639768e-003	5.000000e+000	3.547566e+000	-1.612530e-002
2.062170217639768e-003	5.000000e+000	3.723455e+000	-1.692480e-002
2.073888967639767e-003	5.000000e+000	4.013912e+000	-1.824505e-002
2.085607717639767e-003	5.000000e+000	4.238278e+000	-1.926490e-002
2.103185842639766e-003	5.000000e+000	4.482848e+000	-2.037658e-002
2.120763967639766e-003	5.000000e+000	4.648890e+000	-2.113132e-002
2.134993878354051e-003	5.000000e+000	4.732140e+000	-2.150973e-002
2.149223789068336e-003	5.000000e+000	4.802495e+000	-2.182953e-002
2.163453699782621e-003	5.000000e+000	4.859957e+000	-2.209071e-002
2.177683610496906e-003	5.000000e+000	4.904524e+000	-2.229329e-002
2.191913521211192e-003	5.000000e+000	4.936197e+000	-2.243726e-002
2.206143431925477e-003	5.000000e+000	4.954975e+000	-2.252262e-002
2.220373342639762e-003	5.000000e+000	4.960859e+000	-2.254936e-002
2.279804146211188e-003	5.000000e+000	4.977086e+000	-2.262312e-002
2.339234949782615e-003	5.000000e+000	4.989766e+000	-2.268075e-002
2.398665753354041e-003	5.000000e+000	4.998900e+000	-2.272227e-002
2.458096556925468e-003	5.000000e+000	5.004487e+000	-2.274767e-002
2.517527360496894e-003	5.000000e+000	5.006529e+000	-2.275695e-002
2.576958164068320e-003	5.000000e+000	5.005024e+000	-2.275011e-002
2.636388967639747e-003	5.000000e+000	4.999973e+000	-2.272715e-002
3.000001000000000e-003	5.000000e+000	4.999977e+000	-2.272717e-002
3.000002000000000e-003	4.633751e-010	4.999922e+000	-2.272692e-002
3.004011120714796e-003	2.112510e-010	4.589353e+000	-2.086070e-002
3.008020241429593e-003	2.110277e-011	4.206410e+000	-1.912004e-002
3.012029362144389e-003	-1.070696e-010	3.851091e+000	-1.750496e-002
3.016038482859186e-003	-1.732660e-010	3.523397e+000	-1.601544e-002
3.020047603573982e-003	-1.774866e-010	3.223327e+000	-1.465149e-002
3.024056724288779e-003	-1.197312e-010	2.950882e+000	-1.341310e-002
3.028065845003575e-003	0.000000e+000	2.706062e+000	-1.230028e-002
3.033925220003575e-003	0.000000e+000	2.378354e+000	-1.081070e-002
3.039784595003574e-003	0.000000e+000	2.090332e+000	-9.501509e-003
3.045643970003574e-003	0.000000e+000	1.837190e+000	-8.350863e-003
3.051503345003574e-003	0.000000e+000	1.614704e+000	-7.339561e-003
3.057362720003574e-003	0.000000e+000	1.419161e+000	-6.450730e-003
3.063222095003574e-003	0.000000e+000	1.247298e+000	-5.669537e-003
3.069081470003573e-003	0.000000e+000	1.096249e+000	-4.982948e-003
3.074940845003573e-003	0.000000e+000	9.634913e-001	-4.379506e-003
3.080800220003573e-003	0.000000e+000	8.468112e-001	-3.849142e-003
3.086659595003573e-003	0.000000e+000	7.442611e-001	-3.383005e-003
3.092518970003573e-003	0.000000e+000	6.541300e-001	-2.973318e-003
3.098378345003572e-003	0.000000e+000	5.749140e-001	-2.613245e-003
3.104237720003572e-003	0.000000e+000	5.052910e-001	-2.296777e-003
3.110097095003572e-003	0.000000e+000	4.440996e-001	-2.018634e-003
3.115956470003572e-003	0.000000e+000	3.903185e-001	-1.774175e-003
3.121815845003572e-003	0.000000e+000	3.430504e-001	-1.559320e-003
3.127675220003571e-003	0.000000e+000	3.015065e-001	-1.370484e-003
3.133534595003571e-003	0.000000e+000	2.649936e-001	-1.204516e-003
3.139393970003571e-003	0.000000e+000	2.329025e-001	-1.058648e-003
3.145253345003571e-003	0.000000e+000	2.046977e-001	-9.304439e-004
3.151112720003570e-003	0.000000e+000	1.799085e-001	-8.177658e-004
3.156972095003570e-003	0.000000e+000	1.581213e-001	-7.187332e-004
3.162831470003570e-003	0.000000e+000	1.389726e-001	-6.316936e-004
3.168690845003570e-003	0.000000e+000	1.221428e-001	-5.551946e-004
3.174550220003570e-003	0.000000e+000	1.073511e-001	-4.879598e-004
3.180409595003569e-003	0.000000e+000	9.435077e-002	-4.288671e-004
3.186268970003569e-003	0.000000e+000	8.292475e-002	-3.769307e-004
3.192128345003569e-003	0.000000e+000	7.288244e-002	-3.312839e-004
3.197987720003569e-003	0.000000e+000	6.405628e-002	-2.911649e-004
3.203847095003569e-003	0.000000e+000	5.629897e-002	-2.559044e-004
3.209706470003568e-003	0.000000e+000	4.948109e-002	-2.249140e-004
3.215565845003568e-003	0.000000e+000	4.348885e-002	-1.976766e-004
3.221425220003568e-003	0.000000e+000	3.822229e-002	-1.737377e-004
3.227284595003568e-003	0.000000e+000	3.359352e-002	-1.526978e-004
3.233143970003567e-003	0.000000e+000	2.952529e-002	-1.342059e-004
3.239003345003567e-003	0.000000e+000	2.594974e-002	-1.179534e-004
3.244862720003567e-003	0.000000e+000	2.280719e-002	-1.036690e-004
3.250722095003567e-003	0.000000e+000	2.004521e-002	-9.111457e-005
3.256581470003567e-003	0.000000e+000	1.761770e-002	-8.008047e-005
3.262440845003566e-003	0.000000e+000	1.548417e-002	-7.038261e-005
3.268300220003566e-003	0.000000e+000	1.360902e-002	-6.185917e-005
3.274159595003566e-003	0.000000e+000	1.196095e-002	-5.436794e-005
3.280018970003566e-003	0.000000e+000	1.051246e-002	-4.778391e-005
3.285878345003566e-003	0.000000e+000	9.239385e-003	-4.199721e-005
3.291737720003565e-003	0.000000e+000	8.120482e-003	-3.691128e-005
3.297597095003565e-003	0.000000e+000	7.137080e-003	-3.244127e-005
3.303456470003565e-003	0.000000e+000	6.272770e-003	-2.851259e-005
3.309315845003565e-003	0.000000e+000	5.513128e-003	-2.505967e-005
3.315175220003565e-003	0.000000e+000	4.845480e-003	-2.202491e-005
3.321034595003564e-003	0.000000e+000	4.258686e-003	-1.935766e-005
3.326893970003564e-003	0.000000e+000	3.742953e-003	-1.701342e-005
3.332753345003564e-003	0.000000e+000	3.289676e-003	-1.495307e-005
3.338612720003564e-003	0.000000e+000	2.891291e-003	-1.314223e-005
3.344472095003563e-003	0.000000e+000	2.541152e-003	-1.155069e-005
3.350331470003563e-003	0.000000e+000	2.233415e-003	-1.015189e-005
3.356190845003563e-003	0.000000e+000	1.962945e-003	-8.922478e-006
3.362050220003563e-003	0.000000e+000	1.725230e-003	-7.841953e-006
3.367909595003563e-003	0.000000e+000	1.516302e-003	-6.892281e-006
3.373768970003562e-003	0.000000e+000	1.332675e-003	-6.057616e-006
3.379628345003562e-003	0.000000e+000	1.171287e-003	-5.324030e-006
3.385487720003562e-003	0.000000e+000	1.029442e-003	-4.679282e-006
3.391347095003562e-003	0.000000e+000	9.047752e-004	-4.112615e-006
3.397206470003562e-003	0.000000e+000	7.952056e-004	-3.614571e-006
3.403065845003561e-003	0.000000e+000	6.989051e-004	-3.176841e-006
3.408925220003561e-003	0.000000e+000	6.142667e-004	-2.792121e-006
3.414784595003561e-003	0.000000e+000	5.398781e-004	-2.453991e-006
3.420643970003561e-003	0.000000e+000	4.744981e-004	-2.156809e-006
3.426503345003561e-003	0.000000e+000	4.170357e-004	-1.895617e-006
3.432362720003560e-003	0.000000e+000	3.665321e-004	-1.666055e-006
3.438222095003560e-003	0.000000e+000	3.221445e-004	-1.464293e-006
3.444081470003560e-003	0.000000e+000	2.831324e-004	-1.286965e-006
3.449940845003560e-003	0.000000e+000	2.488446e-004	-1.131112e-006
3.455800220003559e-003	0.000000e+000	2.187092e-004	-9.941326e-007
3.461659595003559e-003	0.000000e+000	1.922232e-004	-8.737417e-007
3.467518970003559e-003	0.000000e+000	1.689447e-004	-7.679304e-007
3.473378345003559e-003	0.000000e+000	1.484852e-004	-6.749329e-007
3.479237720003559e-003	0.000000e+000	1.305035e-004	-5.931976e-007
